T162C 085:451 SEGGER J-Link V6.30h Log File (0000ms, 4894ms total)
T162C 085:451 DLL Compiled: Mar 16 2018 18:02:51 (0000ms, 4894ms total)
T162C 085:451 Logging started @ 2020-03-04 11:15 (0000ms, 4894ms total)
T162C 085:451 JLINK_SetWarnOutHandler(...) (0000ms, 4894ms total)
T162C 085:451 JLINK_OpenEx(...)
Firmware: J-Link V9 compiled Dec 11 2019 17:25:05
Hardware: V9.70
S/N: 59700618
Feature(s): RDI, FlashBP, FlashDL, JFlash, GDB
TELNET listener socket opened on port 19021WEBSRV 
Starting webserver (0091ms, 4985ms total)
T162C 085:451 WEBSRV Webserver running on local port 19080 (0092ms, 4986ms total)
T162C 085:451   returns O.K. (0092ms, 4986ms total)
T162C 085:543 JLINK_GetEmuCaps()  returns 0xB9FF7BBF (0000ms, 4986ms total)
T162C 085:544 JLINK_TIF_GetAvailable(...) (0001ms, 4987ms total)
T162C 085:545 JLINK_SetErrorOutHandler(...) (0000ms, 4987ms total)
T162C 085:545 JLINK_ExecCommand("ProjectFile = "C:\Users\User020\Documents\CleanCar\Project\MDK-ARM(uV4)\JLinkSettings.ini"", ...).   returns 0x00 (0002ms, 4989ms total)
T162C 085:548 JLINK_ExecCommand("Device = STM32F103ZE", ...). Device "STM32F103ZE" selected.  returns 0x00 (0001ms, 4990ms total)
T162C 085:549 JLINK_ExecCommand("DisableConnectionTimeout", ...).   returns 0x01 (0000ms, 4990ms total)
T162C 085:549 JLINK_GetHardwareVersion()  returns 0x17AE8 (0000ms, 4990ms total)
T162C 085:549 JLINK_GetDLLVersion()  returns 63008 (0000ms, 4990ms total)
T162C 085:549 JLINK_GetFirmwareString(...) (0000ms, 4990ms total)
T162C 085:549 JLINK_GetDLLVersion()  returns 63008 (0000ms, 4990ms total)
T162C 085:549 JLINK_GetCompileDateTime() (0000ms, 4990ms total)
T162C 085:549 JLINK_GetFirmwareString(...) (0000ms, 4990ms total)
T162C 085:549 JLINK_GetHardwareVersion()  returns 0x17AE8 (0000ms, 4990ms total)
T162C 085:549 JLINK_TIF_Select(JLINKARM_TIF_SWD)  returns 0x00 (0004ms, 4994ms total)
T162C 085:553 JLINK_SetSpeed(5000) (0001ms, 4995ms total)
T162C 085:554 JLINK_GetId() >0x10B TIF>Found SW-DP with ID 0x1BA01477 >0x0D TIF> >0x28 TIF> >0x0D TIF> >0x28 TIF> >0x0D TIF> >0x28 TIF> >0x0D TIF> >0x28 TIF> >0x0D TIF> >0x21 TIF> >0x0D TIF> >0x28 TIF> >0x0D TIF> >0x28 TIF> >0x0D TIF> >0x28 TIF> >0x0D TIF> >0x21 TIF> >0x0D TIF> >0x21 TIF> >0x0D TIF> >0x28 TIF> >0x0D TIF> >0x21 TIF> >0x0D TIF> >0x21 TIF> >0x0D TIF> >0x28 TIF> >0x0D TIF> >0x21 TIF> >0x0D TIF> >0x21 TIF> >0x0D TIF> >0x28 TIF> >0x0D TIF> >0x21 TIF> >0x0D TIF> >0x21 TIF> >0x0D TIF> >0x28 TIF>
 >0x0D TIF> >0x21 TIF> >0x0D TIF> >0x21 TIF> >0x0D TIF> >0x28 TIF> >0x0D TIF> >0x21 TIF> >0x0D TIF> >0x21 TIF> >0x0D TIF> >0x28 TIF> >0x0D TIF> >0x21 TIF> >0x0D TIF> >0x21 TIF> >0x10B TIF>Found SW-DP with ID 0x1BA01477 >0x0D TIF> >0x28 TIF> >0x0D TIF> >0x28 TIF> >0x0D TIF> >0x28 TIF> >0x0D TIF> >0x28 TIF> >0x0D TIF> >0x21 TIF> >0x0D TIF> >0x28 TIF>Scanning AP map to find all available APs >0x0D TIF> >0x28 TIF> >0x0D TIF> >0x21 TIF> >0x0D TIF> >0x21 TIF> >0x0D TIF> >0x28 TIF> >0x0D TIF> >0x21 TIF>
 >0x0D TIF> >0x21 TIF>AP[1]: Stopped AP scan as end of AP map has been reachedAP[0]: AHB-AP (IDR: 0x14770011)Iterating through AP map to find AHB-AP to use >0x42 TIF> >0x28 TIF> >0x0D TIF> >0x28 TIF> >0x0D TIF> >0x21 TIF> >0x0D TIF> >0x21 TIF> >0x42 TIF> >0x28 TIF> >0x0D TIF> >0x28 TIF> >0x0D TIF> >0x28 TIF> >0x0D TIF> >0x21 TIF> >0x0D TIF> >0x21 TIF>AP[0]: Core foundAP[0]: AHB-AP ROM base: 0xE00FF000 >0x0D TIF> >0x28 TIF> >0x0D TIF> >0x28 TIF> >0x0D TIF> >0x28 TIF> >0x0D TIF> >0x21 TIF> >0x0D TIF>
 >0x21 TIF>CPUID register: 0x411FC231. Implementer code: 0x41 (ARM)Found Cortex-M3 r1p1, Little endian. -- CPU_ReadMem(4 bytes @ 0xE000EDF0) -- CPU_WriteMem(4 bytes @ 0xE000EDF0) -- CPU_ReadMem(4 bytes @ 0xE0002000)FPUnit: 6 code (BP) slots and 2 literal slots -- CPU_ReadMem(4 bytes @ 0xE000EDFC) -- CPU_WriteMem(4 bytes @ 0xE000EDFC) -- CPU_ReadMem(4 bytes @ 0xE0001000) -- CPU_WriteMem(4 bytes @ 0xE0001000) -- CPU_ReadMem(4 bytes @ 0xE000ED88) -- CPU_WriteMem(4 bytes @ 0xE000ED88)
 -- CPU_ReadMem(4 bytes @ 0xE000ED88) -- CPU_WriteMem(4 bytes @ 0xE000ED88)CoreSight components:ROMTbl[0] @ E00FF000 -- CPU_ReadMem(16 bytes @ 0xE00FF000) -- CPU_ReadMem(16 bytes @ 0xE000EFF0) -- CPU_ReadMem(16 bytes @ 0xE000EFE0)ROMTbl[0][0]: E000E000, CID: B105E00D, PID: 001BB000 SCS -- CPU_ReadMem(16 bytes @ 0xE0001FF0) -- CPU_ReadMem(16 bytes @ 0xE0001FE0)ROMTbl[0][1]: E0001000, CID: B105E00D, PID: 001BB002 DWT -- CPU_ReadMem(16 bytes @ 0xE0002FF0) -- CPU_ReadMem(16 bytes @ 0xE0002FE0)
ROMTbl[0][2]: E0002000, CID: B105E00D, PID: 000BB003 FPB -- CPU_ReadMem(16 bytes @ 0xE0000FF0) -- CPU_ReadMem(16 bytes @ 0xE0000FE0)ROMTbl[0][3]: E0000000, CID: B105E00D, PID: 001BB001 ITM -- CPU_ReadMem(16 bytes @ 0xE00FF010) -- CPU_ReadMem(16 bytes @ 0xE0040FF0) -- CPU_ReadMem(16 bytes @ 0xE0040FE0)ROMTbl[0][4]: E0040000, CID: B105900D, PID: 001BB923 TPIU-Lite -- CPU_ReadMem(16 bytes @ 0xE0041FF0) -- CPU_ReadMem(16 bytes @ 0xE0041FE0)ROMTbl[0][5]: E0041000, CID: B105900D, PID: 101BB924 ETM-M3
 >0x0D TIF> >0x21 TIF>  returns 0x1BA01477 (0258ms, 5253ms total)
T162C 085:812 JLINK_GetDLLVersion()  returns 63008 (0000ms, 5253ms total)
T162C 085:812 JLINK_CORE_GetFound()  returns 0x30000FF (0000ms, 5253ms total)
T162C 085:812 JLINK_GetDebugInfo(0x100 = JLINKARM_ROM_TABLE_ADDR_INDEX) -- Value=0xE00FF000  returns 0x00 (0000ms, 5253ms total)
T162C 085:813 JLINK_GetDebugInfo(0x100 = JLINKARM_ROM_TABLE_ADDR_INDEX) -- Value=0xE00FF000  returns 0x00 (0000ms, 5253ms total)
T162C 085:813 JLINK_GetDebugInfo(0x101 = JLINKARM_DEBUG_INFO_ETM_ADDR_INDEX) -- Value=0xE0041000  returns 0x00 (0000ms, 5253ms total)
T162C 085:813 JLINK_ReadMemEx(0xE0041FD0, 0x0020 Bytes, ..., Flags = 0x02000004) -- CPU_ReadMem(32 bytes @ 0xE0041FD0) - Data: 04 00 00 00 00 00 00 00 00 00 00 00 00 00 00 00 ...  returns 0x20 (0001ms, 5254ms total)
T162C 085:814 JLINK_GetDebugInfo(0x102 = JLINKARM_DEBUG_INFO_MTB_ADDR_INDEX) -- Value=0x00000000  returns 0x00 (0000ms, 5254ms total)
T162C 085:814 JLINK_GetDebugInfo(0x103 = JLINKARM_DEBUG_INFO_TPIU_ADDR_INDEX) -- Value=0xE0040000  returns 0x00 (0000ms, 5254ms total)
T162C 085:814 JLINK_GetDebugInfo(0x104 = JLINKARM_DEBUG_INFO_ITM_ADDR_INDEX) -- Value=0xE0000000  returns 0x00 (0000ms, 5254ms total)
T162C 085:814 JLINK_GetDebugInfo(0x105 = JLINKARM_DEBUG_INFO_DWT_ADDR_INDEX) -- Value=0xE0001000  returns 0x00 (0000ms, 5254ms total)
T162C 085:814 JLINK_GetDebugInfo(0x106 = JLINKARM_DEBUG_INFO_FPB_ADDR_INDEX) -- Value=0xE0002000  returns 0x00 (0000ms, 5254ms total)
T162C 085:814 JLINK_GetDebugInfo(0x107 = JLINKARM_DEBUG_INFO_NVIC_ADDR_INDEX) -- Value=0xE000E000  returns 0x00 (0000ms, 5254ms total)
T162C 085:814 JLINK_GetDebugInfo(0x10C = JLINKARM_DEBUG_INFO_DBG_ADDR_INDEX) -- Value=0xE000EDF0  returns 0x00 (0000ms, 5254ms total)
T162C 085:814 JLINK_GetDebugInfo(0x01 = Unknown) -- Value=0x00000000  returns 0x00 (0000ms, 5254ms total)
T162C 085:814 JLINK_ReadMemU32(0xE000ED00, 0x0001 Items, ...) -- CPU_ReadMem(4 bytes @ 0xE000ED00) - Data: 31 C2 1F 41  returns 0x01 (0001ms, 5255ms total)
T162C 085:815 JLINK_GetDebugInfo(0x10F = JLINKARM_DEBUG_INFO_HAS_CORTEX_M_SECURITY_EXT_INDEX) -- Value=0x00000000  returns 0x00 (0000ms, 5255ms total)
T162C 085:815 JLINK_SetResetType(JLINKARM_CM3_RESET_TYPE_NORMAL)  returns JLINKARM_CM3_RESET_TYPE_NORMAL (0000ms, 5255ms total)
T162C 085:815 JLINK_Reset() -- CPU is running -- CPU_WriteMem(4 bytes @ 0xE000EDF0) -- CPU is running -- CPU_WriteMem(4 bytes @ 0xE000EDFC)Reset: Halt core after reset via DEMCR.VC_CORERESET. >0x35 TIF>Reset: Reset device via AIRCR.SYSRESETREQ. -- CPU is running -- CPU_WriteMem(4 bytes @ 0xE000ED0C) >0x0D TIF> >0x28 TIF> -- CPU_ReadMem(4 bytes @ 0xE000EDF0) -- CPU_ReadMem(4 bytes @ 0xE000EDF0) -- CPU is running -- CPU_WriteMem(4 bytes @ 0xE000EDF0) -- CPU is running -- CPU_WriteMem(4 bytes @ 0xE000EDFC)
 -- CPU_ReadMem(4 bytes @ 0xE000EDF0) -- CPU_WriteMem(4 bytes @ 0xE0002000) -- CPU_ReadMem(4 bytes @ 0xE000EDFC) -- CPU_ReadMem(4 bytes @ 0xE0001000) (0073ms, 5328ms total)
T162C 085:888 JLINK_ReadReg(R15 (PC))  returns 0x080001E8 (0000ms, 5328ms total)
T162C 085:888 JLINK_ReadReg(XPSR)  returns 0x01000000 (0000ms, 5328ms total)
T162C 085:888 JLINK_Halt()  returns 0x00 (0000ms, 5328ms total)
T162C 085:888 JLINK_ReadMemU32(0xE000EDF0, 0x0001 Items, ...) -- CPU_ReadMem(4 bytes @ 0xE000EDF0) - Data: 03 00 03 00  returns 0x01 (0001ms, 5329ms total)
T162C 085:889 JLINK_WriteU32(0xE000EDF0, 0xA05F0003) -- CPU_WriteMem(4 bytes @ 0xE000EDF0)  returns 0x00 (0001ms, 5330ms total)
T162C 085:890 JLINK_WriteU32(0xE000EDFC, 0x01000000) -- CPU_WriteMem(4 bytes @ 0xE000EDFC)  returns 0x00 (0001ms, 5331ms total)
T162C 085:891 JLINK_GetHWStatus(...)  returns 0x00 (0001ms, 5332ms total)
T162C 085:892 JLINK_GetNumBPUnits(Type = 0xFFFFFF00)  returns 0x06 (0000ms, 5332ms total)
T162C 085:892 JLINK_GetNumBPUnits(Type = 0xF0)  returns 0x2000 (0000ms, 5332ms total)
T162C 085:892 JLINK_GetNumWPUnits()  returns 0x04 (0000ms, 5332ms total)
T162C 085:892 JLINK_GetSpeed()  returns 0xFA0 (0000ms, 5332ms total)
T162C 085:892 JLINK_ReadMemU32(0xE000E004, 0x0001 Items, ...) -- CPU_ReadMem(4 bytes @ 0xE000E004) - Data: 01 00 00 00  returns 0x01 (0001ms, 5333ms total)
T162C 085:893 JLINK_ReadMemU32(0xE000E004, 0x0001 Items, ...) -- CPU_ReadMem(4 bytes @ 0xE000E004) - Data: 01 00 00 00  returns 0x01 (0001ms, 5334ms total)
T162C 085:894 JLINK_WriteMemEx(0xE0001000, 0x001C Bytes, ..., Flags = 0x02000004) - Data: 01 00 00 00 00 00 00 00 00 00 00 00 00 00 00 00 ... -- CPU_WriteMem(28 bytes @ 0xE0001000)  returns 0x1C (0001ms, 5335ms total)
T162C 085:895 JLINK_ReadReg(R15 (PC))  returns 0x080001E8 (0000ms, 5335ms total)
T162C 085:895 JLINK_ReadReg(XPSR)  returns 0x01000000 (0000ms, 5335ms total)
T162C 085:968 JLINK_SetResetType(JLINKARM_CM3_RESET_TYPE_NORMAL)  returns JLINKARM_CM3_RESET_TYPE_NORMAL (0000ms, 5335ms total)
T162C 085:968 JLINK_Reset() -- CPU_WriteMem(4 bytes @ 0xE000EDF0) -- CPU_WriteMem(4 bytes @ 0xE000EDFC)Reset: Halt core after reset via DEMCR.VC_CORERESET. >0x35 TIF>Reset: Reset device via AIRCR.SYSRESETREQ. -- CPU_WriteMem(4 bytes @ 0xE000ED0C) >0x0D TIF> >0x28 TIF> -- CPU_ReadMem(4 bytes @ 0xE000EDF0) -- CPU_ReadMem(4 bytes @ 0xE000EDF0) -- CPU_WriteMem(4 bytes @ 0xE000EDF0) -- CPU_WriteMem(4 bytes @ 0xE000EDFC) -- CPU_ReadMem(4 bytes @ 0xE000EDF0) -- CPU_WriteMem(4 bytes @ 0xE0002000)
 -- CPU_ReadMem(4 bytes @ 0xE000EDFC) -- CPU_ReadMem(4 bytes @ 0xE0001000) (0073ms, 5408ms total)
T162C 086:041 JLINK_ReadReg(R15 (PC))  returns 0x080001E8 (0000ms, 5408ms total)
T162C 086:041 JLINK_ReadReg(XPSR)  returns 0x01000000 (0000ms, 5408ms total)
T162C 086:041 JLINK_ReadMemEx(0x08000130, 0x003C Bytes, ..., Flags = 0x02000000) -- CPU_ReadMem(128 bytes @ 0x08000100) -- Updating C cache (128 bytes @ 0x08000100) -- Read from C cache (60 bytes @ 0x08000130) - Data: DF F8 0C D0 00 F0 58 FC 00 48 00 47 29 60 00 08 ...  returns 0x3C (0002ms, 5410ms total)
T162C 086:043 JLINK_ReadMemEx(0x0800016C, 0x003C Bytes, ..., Flags = 0x02000000) -- CPU_ReadMem(64 bytes @ 0x08000180) -- Updating C cache (64 bytes @ 0x08000180) -- Read from C cache (60 bytes @ 0x0800016C) - Data: 00 68 80 F3 08 88 62 B6 61 B6 BF F3 4F 8F BF F3 ...  returns 0x3C (0001ms, 5411ms total)
T162C 086:044 JLINK_ReadMemEx(0x080001A8, 0x003C Bytes, ..., Flags = 0x02000000) -- CPU_ReadMem(64 bytes @ 0x080001C0) -- Updating C cache (64 bytes @ 0x080001C0) -- Read from C cache (60 bytes @ 0x080001A8) - Data: 4F F0 00 00 80 F3 11 88 BD E8 08 40 19 68 08 68 ...  returns 0x3C (0001ms, 5412ms total)
T162C 086:045 JLINK_ReadMemEx(0x080001E4, 0x003C Bytes, ..., Flags = 0x02000000) -- CPU_ReadMem(64 bytes @ 0x08000200) -- Updating C cache (64 bytes @ 0x08000200) -- Read from C cache (60 bytes @ 0x080001E4) - Data: 70 47 00 00 06 48 80 47 06 48 00 47 FE E7 FE E7 ...  returns 0x3C (0001ms, 5413ms total)
T162C 086:959 JLINK_ReadReg(R0)  returns 0x000186A0 (0001ms, 5414ms total)
T162C 086:960 JLINK_ReadReg(R1)  returns 0x00505851 (0000ms, 5414ms total)
T162C 086:960 JLINK_ReadReg(R2)  returns 0x006DDD00 (0000ms, 5414ms total)
T162C 086:960 JLINK_ReadReg(R3)  returns 0x0002A3A9 (0000ms, 5414ms total)
T162C 086:960 JLINK_ReadReg(R4)  returns 0x0052FBFA (0000ms, 5414ms total)
T162C 086:960 JLINK_ReadReg(R5)  returns 0x000F4240 (0000ms, 5414ms total)
T162C 086:960 JLINK_ReadReg(R6)  returns 0x00000000 (0000ms, 5414ms total)
T162C 086:960 JLINK_ReadReg(R7)  returns 0x00000000 (0000ms, 5414ms total)
T162C 086:960 JLINK_ReadReg(R8)  returns 0x00000000 (0000ms, 5414ms total)
T162C 086:960 JLINK_ReadReg(R9)  returns 0x20000160 (0000ms, 5414ms total)
T162C 086:960 JLINK_ReadReg(R10)  returns 0x00000000 (0000ms, 5414ms total)
T162C 086:960 JLINK_ReadReg(R11)  returns 0x00000000 (0000ms, 5414ms total)
T162C 086:960 JLINK_ReadReg(R12)  returns 0x00000010 (0000ms, 5414ms total)
T162C 086:960 JLINK_ReadReg(R13 (SP))  returns 0x20009878 (0000ms, 5414ms total)
T162C 086:960 JLINK_ReadReg(R14)  returns 0xFFFFFFFF (0000ms, 5414ms total)
T162C 086:960 JLINK_ReadReg(R15 (PC))  returns 0x080001E8 (0000ms, 5414ms total)
T162C 086:960 JLINK_ReadReg(XPSR)  returns 0x01000000 (0000ms, 5414ms total)
T162C 086:960 JLINK_ReadReg(MSP)  returns 0x20009878 (0000ms, 5414ms total)
T162C 086:961 JLINK_ReadReg(PSP)  returns 0x20000800 (0000ms, 5414ms total)
T162C 086:961 JLINK_ReadReg(CFBP)  returns 0x00000000 (0000ms, 5414ms total)
T0D44 086:986 JLINK_ReadMemEx(0x080001E8, 0x0002 Bytes, ..., Flags = 0x02000000) -- Read from C cache (2 bytes @ 0x080001E8) - Data: 06 48  returns 0x02 (0001ms, 5415ms total)
T0D44 086:987 JLINK_SetBPEx(Addr = 0x08006028, Type = 0xFFFFFFF2)  returns 0x00000001 (0000ms, 5415ms total)
T0D44 086:987 JLINK_Go() -- CPU_WriteMem(4 bytes @ 0xE0002000) -- CPU_ReadMem(4 bytes @ 0xE0001000) -- CPU_WriteMem(4 bytes @ 0xE0002008) -- CPU_WriteMem(4 bytes @ 0xE000200C) -- CPU_WriteMem(4 bytes @ 0xE0002010) -- CPU_WriteMem(4 bytes @ 0xE0002014) -- CPU_WriteMem(4 bytes @ 0xE0002018) -- CPU_WriteMem(4 bytes @ 0xE000201C) -- CPU_WriteMem(4 bytes @ 0xE0001004) (0005ms, 5420ms total)
T0D44 087:092 JLINK_IsHalted()  returns TRUE (0003ms, 5423ms total)
T0D44 087:095 JLINK_Halt()  returns 0x00 (0000ms, 5420ms total)
T0D44 087:095 JLINK_IsHalted()  returns TRUE (0000ms, 5420ms total)
T0D44 087:095 JLINK_IsHalted()  returns TRUE (0000ms, 5420ms total)
T0D44 087:095 JLINK_IsHalted()  returns TRUE (0000ms, 5420ms total)
T0D44 087:095 JLINK_ReadReg(R15 (PC))  returns 0x08006028 (0000ms, 5420ms total)
T0D44 087:095 JLINK_ReadReg(XPSR)  returns 0x61000000 (0000ms, 5420ms total)
T0D44 087:095 JLINK_ClrBPEx(BPHandle = 0x00000001)  returns 0x00 (0000ms, 5420ms total)
T0D44 087:095 JLINK_ReadMemU32(0xE000ED30, 0x0001 Items, ...) -- CPU_ReadMem(4 bytes @ 0xE000ED30) - Data: 02 00 00 00  returns 0x01 (0001ms, 5421ms total)
T0D44 087:096 JLINK_ReadMemU32(0xE0001028, 0x0001 Items, ...) -- CPU_ReadMem(4 bytes @ 0xE0001028) - Data: 00 00 00 00  returns 0x01 (0001ms, 5422ms total)
T0D44 087:097 JLINK_ReadMemU32(0xE0001038, 0x0001 Items, ...) -- CPU_ReadMem(4 bytes @ 0xE0001038) - Data: 00 02 00 00  returns 0x01 (0001ms, 5423ms total)
T0D44 087:098 JLINK_ReadMemU32(0xE0001048, 0x0001 Items, ...) -- CPU_ReadMem(4 bytes @ 0xE0001048) - Data: 00 00 00 00  returns 0x01 (0001ms, 5424ms total)
T0D44 087:099 JLINK_ReadMemU32(0xE0001058, 0x0001 Items, ...) -- CPU_ReadMem(4 bytes @ 0xE0001058) - Data: 00 00 00 00  returns 0x01 (0001ms, 5425ms total)
T0D44 087:100 JLINK_ReadReg(R0)  returns 0x08006029 (0000ms, 5425ms total)
T0D44 087:100 JLINK_ReadReg(R1)  returns 0x20009878 (0000ms, 5425ms total)
T0D44 087:100 JLINK_ReadReg(R2)  returns 0x00000000 (0000ms, 5425ms total)
T0D44 087:100 JLINK_ReadReg(R3)  returns 0x08002E5D (0000ms, 5425ms total)
T0D44 087:100 JLINK_ReadReg(R4)  returns 0x08007350 (0000ms, 5425ms total)
T0D44 087:100 JLINK_ReadReg(R5)  returns 0x08007350 (0000ms, 5425ms total)
T0D44 087:100 JLINK_ReadReg(R6)  returns 0x00000000 (0000ms, 5425ms total)
T0D44 087:100 JLINK_ReadReg(R7)  returns 0x00000000 (0000ms, 5425ms total)
T0D44 087:100 JLINK_ReadReg(R8)  returns 0x00000000 (0000ms, 5425ms total)
T0D44 087:100 JLINK_ReadReg(R9)  returns 0x20000160 (0000ms, 5425ms total)
T0D44 087:100 JLINK_ReadReg(R10)  returns 0x00000000 (0000ms, 5425ms total)
T0D44 087:100 JLINK_ReadReg(R11)  returns 0x00000000 (0000ms, 5425ms total)
T0D44 087:100 JLINK_ReadReg(R12)  returns 0x00000010 (0000ms, 5425ms total)
T0D44 087:100 JLINK_ReadReg(R13 (SP))  returns 0x20009878 (0000ms, 5425ms total)
T0D44 087:100 JLINK_ReadReg(R14)  returns 0x08000A05 (0000ms, 5425ms total)
T0D44 087:100 JLINK_ReadReg(R15 (PC))  returns 0x08006028 (0001ms, 5426ms total)
T0D44 087:101 JLINK_ReadReg(XPSR)  returns 0x61000000 (0000ms, 5426ms total)
T0D44 087:101 JLINK_ReadReg(MSP)  returns 0x20009878 (0000ms, 5426ms total)
T0D44 087:101 JLINK_ReadReg(PSP)  returns 0x20000800 (0000ms, 5426ms total)
T0D44 087:101 JLINK_ReadReg(CFBP)  returns 0x00000000 (0000ms, 5426ms total)
T162C 087:105 JLINK_ReadMemU32(0xE0001004, 0x0001 Items, ...) -- CPU_ReadMem(4 bytes @ 0xE0001004) - Data: FC 69 01 00  returns 0x01 (0001ms, 5427ms total)
T162C 087:109 JLINK_ReadMemEx(0x08005F28, 0x003C Bytes, ..., Flags = 0x02000000) -- CPU_ReadMem(128 bytes @ 0x08005F00) -- Updating C cache (128 bytes @ 0x08005F00) -- Read from C cache (60 bytes @ 0x08005F28) - Data: 28 46 70 BD 01 20 FC E7 08 08 01 40 00 20 01 E0 ...  returns 0x3C (0001ms, 5428ms total)
T162C 087:111 JLINK_ReadMemEx(0x08005F64, 0x003C Bytes, ..., Flags = 0x02000000) -- CPU_ReadMem(64 bytes @ 0x08005F80) -- Updating C cache (64 bytes @ 0x08005F80) -- Read from C cache (60 bytes @ 0x08005F64) - Data: E7 FF 02 20 0A 49 08 60 FF F7 E2 FF 02 20 08 49 ...  returns 0x3C (0000ms, 5428ms total)
T162C 087:111 JLINK_ReadMemEx(0x08005FA0, 0x003C Bytes, ..., Flags = 0x02000000) -- CPU_ReadMem(64 bytes @ 0x08005FC0) -- Updating C cache (64 bytes @ 0x08005FC0) -- Read from C cache (60 bytes @ 0x08005FA0) - Data: 02 20 08 60 FF F7 C6 FF 10 20 06 49 09 1D 08 60 ...  returns 0x3C (0002ms, 5430ms total)
T162C 087:113 JLINK_ReadMemEx(0x08005FDC, 0x0024 Bytes, ..., Flags = 0x02000000) -- Read from C cache (36 bytes @ 0x08005FDC) - Data: 02 49 09 1F 08 60 FF F7 A7 FF 10 BD 14 08 01 40 ...  returns 0x24 (0000ms, 5430ms total)
T162C 087:113 JLINK_ReadMemEx(0x08006000, 0x0018 Bytes, ..., Flags = 0x02000000) -- CPU_ReadMem(64 bytes @ 0x08006000) -- Updating C cache (64 bytes @ 0x08006000) -- Read from C cache (24 bytes @ 0x08006000) - Data: 99 FF 08 48 08 38 00 68 00 F0 10 00 08 B1 01 24 ...  returns 0x18 (0001ms, 5431ms total)
T162C 087:114 JLINK_ReadMemEx(0x08006018, 0x003C Bytes, ..., Flags = 0x02000000) -- CPU_ReadMem(64 bytes @ 0x08006040) -- Updating C cache (64 bytes @ 0x08006040) -- Read from C cache (60 bytes @ 0x08006018) - Data: 09 1D 08 60 FF F7 8A FF 20 46 10 BD 10 08 01 40 ...  returns 0x3C (0001ms, 5432ms total)
T0D44 089:204 JLINK_ReadMemEx(0x08006028, 0x0002 Bytes, ..., Flags = 0x02000000) -- Read from C cache (2 bytes @ 0x08006028) - Data: 01 20  returns 0x02 (0000ms, 5432ms total)
T0D44 089:204 JLINK_Step() -- Read from C cache (2 bytes @ 0x08006028) -- CPU_ReadMem(4 bytes @ 0xE000ED18) -- CPU_WriteMem(4 bytes @ 0xE000ED18) -- CPU_ReadMem(4 bytes @ 0xE000ED18) -- CPU_WriteMem(4 bytes @ 0xE000ED18) -- Simulated  returns 0x00 (0005ms, 5437ms total)
T0D44 089:209 JLINK_ReadReg(R15 (PC))  returns 0x0800602A (0000ms, 5437ms total)
T0D44 089:209 JLINK_ReadReg(XPSR)  returns 0x21000000 (0000ms, 5437ms total)
T0D44 089:209 JLINK_SetBPEx(Addr = 0x08006030, Type = 0xFFFFFFF2)  returns 0x00000002 (0000ms, 5437ms total)
T0D44 089:209 JLINK_Go() -- CPU_WriteMem(4 bytes @ 0xE0002000) -- CPU_ReadMem(4 bytes @ 0xE0001000) -- CPU_WriteMem(4 bytes @ 0xE0002008) -- CPU_WriteMem(4 bytes @ 0xE0001004) (0006ms, 5443ms total)
T0D44 089:315 JLINK_IsHalted()  returns TRUE (0003ms, 5446ms total)
T0D44 089:318 JLINK_Halt()  returns 0x00 (0000ms, 5443ms total)
T0D44 089:318 JLINK_IsHalted()  returns TRUE (0000ms, 5443ms total)
T0D44 089:318 JLINK_IsHalted()  returns TRUE (0000ms, 5443ms total)
T0D44 089:318 JLINK_IsHalted()  returns TRUE (0000ms, 5443ms total)
T0D44 089:318 JLINK_ReadReg(R15 (PC))  returns 0x08006030 (0000ms, 5443ms total)
T0D44 089:318 JLINK_ReadReg(XPSR)  returns 0x21000000 (0000ms, 5443ms total)
T0D44 089:318 JLINK_ClrBPEx(BPHandle = 0x00000002)  returns 0x00 (0000ms, 5443ms total)
T0D44 089:318 JLINK_ReadMemU32(0xE000ED30, 0x0001 Items, ...) -- CPU_ReadMem(4 bytes @ 0xE000ED30) - Data: 02 00 00 00  returns 0x01 (0001ms, 5444ms total)
T0D44 089:319 JLINK_ReadMemU32(0xE0001028, 0x0001 Items, ...) -- CPU_ReadMem(4 bytes @ 0xE0001028) - Data: 00 00 00 00  returns 0x01 (0001ms, 5445ms total)
T0D44 089:320 JLINK_ReadMemU32(0xE0001038, 0x0001 Items, ...) -- CPU_ReadMem(4 bytes @ 0xE0001038) - Data: 00 02 00 00  returns 0x01 (0001ms, 5446ms total)
T0D44 089:321 JLINK_ReadMemU32(0xE0001048, 0x0001 Items, ...) -- CPU_ReadMem(4 bytes @ 0xE0001048) - Data: 00 00 00 00  returns 0x01 (0001ms, 5447ms total)
T0D44 089:322 JLINK_ReadMemU32(0xE0001058, 0x0001 Items, ...) -- CPU_ReadMem(4 bytes @ 0xE0001058) - Data: 00 00 00 00  returns 0x01 (0001ms, 5448ms total)
T0D44 089:323 JLINK_ReadReg(R0)  returns 0x00000001 (0000ms, 5448ms total)
T0D44 089:323 JLINK_ReadReg(R1)  returns 0x20009878 (0000ms, 5448ms total)
T0D44 089:323 JLINK_ReadReg(R2)  returns 0x00000000 (0000ms, 5448ms total)
T0D44 089:323 JLINK_ReadReg(R3)  returns 0x08002E5D (0000ms, 5448ms total)
T0D44 089:323 JLINK_ReadReg(R4)  returns 0x08007350 (0000ms, 5448ms total)
T0D44 089:323 JLINK_ReadReg(R5)  returns 0x08007350 (0000ms, 5448ms total)
T0D44 089:323 JLINK_ReadReg(R6)  returns 0x00000000 (0001ms, 5449ms total)
T0D44 089:324 JLINK_ReadReg(R7)  returns 0x00000000 (0000ms, 5449ms total)
T0D44 089:324 JLINK_ReadReg(R8)  returns 0x00000000 (0000ms, 5449ms total)
T0D44 089:324 JLINK_ReadReg(R9)  returns 0x20000160 (0000ms, 5449ms total)
T0D44 089:324 JLINK_ReadReg(R10)  returns 0x00000000 (0000ms, 5449ms total)
T0D44 089:324 JLINK_ReadReg(R11)  returns 0x00000000 (0000ms, 5449ms total)
T0D44 089:324 JLINK_ReadReg(R12)  returns 0x00000010 (0000ms, 5449ms total)
T0D44 089:324 JLINK_ReadReg(R13 (SP))  returns 0x20009878 (0000ms, 5449ms total)
T0D44 089:324 JLINK_ReadReg(R14)  returns 0x08000A05 (0000ms, 5449ms total)
T0D44 089:324 JLINK_ReadReg(R15 (PC))  returns 0x08006030 (0000ms, 5449ms total)
T0D44 089:324 JLINK_ReadReg(XPSR)  returns 0x21000000 (0000ms, 5449ms total)
T0D44 089:324 JLINK_ReadReg(MSP)  returns 0x20009878 (0000ms, 5449ms total)
T0D44 089:324 JLINK_ReadReg(PSP)  returns 0x20000800 (0000ms, 5449ms total)
T0D44 089:324 JLINK_ReadReg(CFBP)  returns 0x00000001 (0000ms, 5449ms total)
T162C 089:324 JLINK_ReadMemU32(0xE0001004, 0x0001 Items, ...) -- CPU_ReadMem(4 bytes @ 0xE0001004) - Data: 00 6A 01 00  returns 0x01 (0002ms, 5451ms total)
T162C 089:331 JLINK_ReadMemEx(0x08006028, 0x003C Bytes, ..., Flags = 0x02000000) -- CPU_ReadMem(128 bytes @ 0x08006000) -- Updating C cache (128 bytes @ 0x08006000) -- Read from C cache (60 bytes @ 0x08006028) - Data: 01 20 80 F3 10 88 00 BF FE F7 9E FD 00 F0 F6 FB ...  returns 0x3C (0001ms, 5452ms total)
T0D44 089:683 JLINK_ReadMemEx(0x08006030, 0x0002 Bytes, ..., Flags = 0x02000000) -- Read from C cache (2 bytes @ 0x08006030) - Data: FE F7  returns 0x02 (0000ms, 5452ms total)
T0D44 089:683 JLINK_Step() -- Read from C cache (2 bytes @ 0x08006030) -- Read from C cache (2 bytes @ 0x08006032) -- Simulated  returns 0x00 (0000ms, 5452ms total)
T0D44 089:683 JLINK_ReadReg(R15 (PC))  returns 0x08004B70 (0000ms, 5452ms total)
T0D44 089:683 JLINK_ReadReg(XPSR)  returns 0x21000000 (0001ms, 5453ms total)
T0D44 089:684 JLINK_ReadReg(R0)  returns 0x00000001 (0000ms, 5453ms total)
T0D44 089:684 JLINK_ReadReg(R1)  returns 0x20009878 (0000ms, 5453ms total)
T0D44 089:684 JLINK_ReadReg(R2)  returns 0x00000000 (0000ms, 5453ms total)
T0D44 089:684 JLINK_ReadReg(R3)  returns 0x08002E5D (0000ms, 5453ms total)
T0D44 089:684 JLINK_ReadReg(R4)  returns 0x08007350 (0000ms, 5453ms total)
T0D44 089:684 JLINK_ReadReg(R5)  returns 0x08007350 (0000ms, 5453ms total)
T0D44 089:684 JLINK_ReadReg(R6)  returns 0x00000000 (0000ms, 5453ms total)
T0D44 089:684 JLINK_ReadReg(R7)  returns 0x00000000 (0000ms, 5453ms total)
T0D44 089:684 JLINK_ReadReg(R8)  returns 0x00000000 (0000ms, 5453ms total)
T0D44 089:684 JLINK_ReadReg(R9)  returns 0x20000160 (0000ms, 5453ms total)
T0D44 089:684 JLINK_ReadReg(R10)  returns 0x00000000 (0000ms, 5453ms total)
T0D44 089:684 JLINK_ReadReg(R11)  returns 0x00000000 (0000ms, 5453ms total)
T0D44 089:684 JLINK_ReadReg(R12)  returns 0x00000010 (0000ms, 5453ms total)
T0D44 089:684 JLINK_ReadReg(R13 (SP))  returns 0x20009878 (0000ms, 5453ms total)
T0D44 089:684 JLINK_ReadReg(R14)  returns 0x08006035 (0000ms, 5453ms total)
T0D44 089:684 JLINK_ReadReg(R15 (PC))  returns 0x08004B70 (0000ms, 5453ms total)
T0D44 089:684 JLINK_ReadReg(XPSR)  returns 0x21000000 (0000ms, 5453ms total)
T0D44 089:684 JLINK_ReadReg(MSP)  returns 0x20009878 (0000ms, 5453ms total)
T0D44 089:684 JLINK_ReadReg(PSP)  returns 0x20000800 (0000ms, 5453ms total)
T0D44 089:684 JLINK_ReadReg(CFBP)  returns 0x00000001 (0000ms, 5453ms total)
T162C 089:688 JLINK_ReadMemU32(0xE0001004, 0x0001 Items, ...) - Data: 01 6A 01 00  returns 0x01 (0000ms, 5453ms total)
T162C 089:694 JLINK_ReadMemEx(0x08004A78, 0x003C Bytes, ..., Flags = 0x02000000) -- CPU_ReadMem(128 bytes @ 0x08004A40) -- Updating C cache (128 bytes @ 0x08004A40) -- Read from C cache (60 bytes @ 0x08004A78) - Data: 01 46 00 20 24 4A 91 42 01 D1 C8 14 42 E0 23 4A ...  returns 0x3C (0001ms, 5454ms total)
T162C 089:695 JLINK_ReadMemEx(0x08004AB4, 0x003C Bytes, ..., Flags = 0x02000000) -- CPU_ReadMem(64 bytes @ 0x08004AC0) -- Updating C cache (64 bytes @ 0x08004AC0) -- Read from C cache (60 bytes @ 0x08004AB4) - Data: B1 F1 80 4F 01 D1 01 20 26 E0 19 4A 91 42 01 D1 ...  returns 0x3C (0001ms, 5455ms total)
T162C 089:696 JLINK_ReadMemEx(0x08004AF0, 0x003C Bytes, ..., Flags = 0x02000000) -- CPU_ReadMem(64 bytes @ 0x08004B00) -- Updating C cache (64 bytes @ 0x08004B00) -- Read from C cache (60 bytes @ 0x08004AF0) - Data: 11 4A 91 42 01 D1 40 20 08 E0 10 4A 91 42 01 D1 ...  returns 0x3C (0001ms, 5456ms total)
T162C 089:697 JLINK_ReadMemEx(0x08004B44, 0x003C Bytes, ..., Flags = 0x02000000) -- CPU_ReadMem(64 bytes @ 0x08004B40) -- Updating C cache (64 bytes @ 0x08004B40) -- Read from C cache (60 bytes @ 0x08004B44) - Data: 70 B5 05 46 0C 46 45 F2 55 50 FC F7 FB FA 28 46 ...  returns 0x3C (0001ms, 5457ms total)
T0D44 090:613 JLINK_ReadMemEx(0x08004B70, 0x0002 Bytes, ..., Flags = 0x02000000) -- Read from C cache (2 bytes @ 0x08004B70) - Data: 10 B5  returns 0x02 (0000ms, 5457ms total)
T0D44 090:613 JLINK_Step() -- Read from C cache (2 bytes @ 0x08004B70) -- CPU_WriteMem(8 bytes @ 0x20009870) -- Simulated  returns 0x00 (0002ms, 5459ms total)
T0D44 090:615 JLINK_ReadReg(R15 (PC))  returns 0x08004B72 (0000ms, 5459ms total)
T0D44 090:615 JLINK_ReadReg(XPSR)  returns 0x21000000 (0000ms, 5459ms total)
T0D44 090:615 JLINK_ReadReg(R0)  returns 0x00000001 (0000ms, 5459ms total)
T0D44 090:615 JLINK_ReadReg(R1)  returns 0x20009878 (0000ms, 5459ms total)
T0D44 090:615 JLINK_ReadReg(R2)  returns 0x00000000 (0000ms, 5459ms total)
T0D44 090:615 JLINK_ReadReg(R3)  returns 0x08002E5D (0000ms, 5459ms total)
T0D44 090:615 JLINK_ReadReg(R4)  returns 0x08007350 (0000ms, 5459ms total)
T0D44 090:615 JLINK_ReadReg(R5)  returns 0x08007350 (0001ms, 5460ms total)
T0D44 090:616 JLINK_ReadReg(R6)  returns 0x00000000 (0000ms, 5460ms total)
T0D44 090:616 JLINK_ReadReg(R7)  returns 0x00000000 (0000ms, 5460ms total)
T0D44 090:616 JLINK_ReadReg(R8)  returns 0x00000000 (0000ms, 5460ms total)
T0D44 090:616 JLINK_ReadReg(R9)  returns 0x20000160 (0000ms, 5460ms total)
T0D44 090:616 JLINK_ReadReg(R10)  returns 0x00000000 (0000ms, 5460ms total)
T0D44 090:616 JLINK_ReadReg(R11)  returns 0x00000000 (0000ms, 5460ms total)
T0D44 090:616 JLINK_ReadReg(R12)  returns 0x00000010 (0000ms, 5460ms total)
T0D44 090:616 JLINK_ReadReg(R13 (SP))  returns 0x20009870 (0000ms, 5460ms total)
T0D44 090:616 JLINK_ReadReg(R14)  returns 0x08006035 (0000ms, 5460ms total)
T0D44 090:616 JLINK_ReadReg(R15 (PC))  returns 0x08004B72 (0000ms, 5460ms total)
T0D44 090:616 JLINK_ReadReg(XPSR)  returns 0x21000000 (0000ms, 5460ms total)
T0D44 090:616 JLINK_ReadReg(MSP)  returns 0x20009870 (0000ms, 5460ms total)
T0D44 090:616 JLINK_ReadReg(PSP)  returns 0x20000800 (0000ms, 5460ms total)
T0D44 090:616 JLINK_ReadReg(CFBP)  returns 0x00000001 (0000ms, 5460ms total)
T162C 090:617 JLINK_ReadMemEx(0x20009874, 0x0004 Bytes, ..., Flags = 0x02000000) -- CPU_ReadMem(64 bytes @ 0x20009840) -- Updating C cache (64 bytes @ 0x20009840) -- Read from C cache (4 bytes @ 0x20009874) - Data: 35 60 00 08  returns 0x04 (0002ms, 5462ms total)
T162C 090:619 JLINK_ReadMemEx(0x20009870, 0x0004 Bytes, ..., Flags = 0x02000000) -- Read from C cache (4 bytes @ 0x20009870) - Data: 50 73 00 08  returns 0x04 (0000ms, 5462ms total)
T162C 090:619 JLINK_ReadMemU32(0xE0001004, 0x0001 Items, ...) - Data: 04 6A 01 00  returns 0x01 (0000ms, 5462ms total)
T162C 090:624 JLINK_ReadMemEx(0x08004B70, 0x003C Bytes, ..., Flags = 0x02000000) -- CPU_ReadMem(64 bytes @ 0x08004B80) -- Updating C cache (64 bytes @ 0x08004B80) -- Read from C cache (60 bytes @ 0x08004B70) - Data: 10 B5 4F F4 40 70 FC F7 C1 FC 00 F0 93 F8 00 F0 ...  returns 0x3C (0002ms, 5464ms total)
T0D44 090:967 JLINK_ReadMemEx(0x08004B72, 0x0002 Bytes, ..., Flags = 0x02000000) -- Read from C cache (2 bytes @ 0x08004B72) - Data: 4F F4  returns 0x02 (0000ms, 5464ms total)
T0D44 090:967 JLINK_Step() -- Read from C cache (2 bytes @ 0x08004B72) -- Read from C cache (2 bytes @ 0x08004B74) -- Simulated  returns 0x00 (0000ms, 5464ms total)
T0D44 090:967 JLINK_ReadReg(R15 (PC))  returns 0x08004B76 (0000ms, 5464ms total)
T0D44 090:967 JLINK_ReadReg(XPSR)  returns 0x21000000 (0000ms, 5464ms total)
T0D44 090:967 JLINK_ReadMemEx(0x08004B74, 0x003C Bytes, ..., Flags = 0x02000000) -- Read from C cache (60 bytes @ 0x08004B74) - Data: 40 70 FC F7 C1 FC 00 F0 93 F8 00 F0 51 F8 00 F0 ...  returns 0x3C (0000ms, 5464ms total)
T0D44 090:967 JLINK_ReadMemEx(0x08004B74, 0x0002 Bytes, ..., Flags = 0x02000000) -- Read from C cache (2 bytes @ 0x08004B74) - Data: 40 70  returns 0x02 (0000ms, 5464ms total)
T0D44 090:967 JLINK_ReadMemEx(0x08004B76, 0x0002 Bytes, ..., Flags = 0x02000000) -- Read from C cache (2 bytes @ 0x08004B76) - Data: FC F7  returns 0x02 (0000ms, 5464ms total)
T0D44 090:967 JLINK_SetBPEx(Addr = 0x08004B7A, Type = 0xFFFFFFF2)  returns 0x00000003 (0000ms, 5464ms total)
T0D44 090:967 JLINK_Go() -- CPU_WriteMem(4 bytes @ 0xE0002000) -- CPU_ReadMem(4 bytes @ 0xE0001000) -- CPU_WriteMem(4 bytes @ 0xE0002008) -- CPU_WriteMem(4 bytes @ 0xE0001004) (0007ms, 5471ms total)
T0D44 091:074 JLINK_IsHalted()  returns TRUE (0003ms, 5474ms total)
T0D44 091:077 JLINK_Halt()  returns 0x00 (0000ms, 5471ms total)
T0D44 091:077 JLINK_IsHalted()  returns TRUE (0000ms, 5471ms total)
T0D44 091:077 JLINK_IsHalted()  returns TRUE (0000ms, 5471ms total)
T0D44 091:077 JLINK_IsHalted()  returns TRUE (0000ms, 5471ms total)
T0D44 091:077 JLINK_ReadReg(R15 (PC))  returns 0x08004B7A (0000ms, 5471ms total)
T0D44 091:077 JLINK_ReadReg(XPSR)  returns 0x21000000 (0000ms, 5471ms total)
T0D44 091:077 JLINK_ClrBPEx(BPHandle = 0x00000003)  returns 0x00 (0000ms, 5471ms total)
T0D44 091:077 JLINK_ReadMemU32(0xE000ED30, 0x0001 Items, ...) -- CPU_ReadMem(4 bytes @ 0xE000ED30) - Data: 02 00 00 00  returns 0x01 (0001ms, 5472ms total)
T0D44 091:078 JLINK_ReadMemU32(0xE0001028, 0x0001 Items, ...) -- CPU_ReadMem(4 bytes @ 0xE0001028) - Data: 00 00 00 00  returns 0x01 (0001ms, 5473ms total)
T0D44 091:079 JLINK_ReadMemU32(0xE0001038, 0x0001 Items, ...) -- CPU_ReadMem(4 bytes @ 0xE0001038) - Data: 00 02 00 00  returns 0x01 (0001ms, 5474ms total)
T0D44 091:080 JLINK_ReadMemU32(0xE0001048, 0x0001 Items, ...) -- CPU_ReadMem(4 bytes @ 0xE0001048) - Data: 00 00 00 00  returns 0x01 (0001ms, 5475ms total)
T0D44 091:081 JLINK_ReadMemU32(0xE0001058, 0x0001 Items, ...) -- CPU_ReadMem(4 bytes @ 0xE0001058) - Data: 00 00 00 00  returns 0x01 (0001ms, 5476ms total)
T0D44 091:082 JLINK_ReadReg(R0)  returns 0x00000300 (0000ms, 5476ms total)
T0D44 091:082 JLINK_ReadReg(R1)  returns 0x05FA0300 (0000ms, 5476ms total)
T0D44 091:082 JLINK_ReadReg(R2)  returns 0xE000ED0C (0000ms, 5476ms total)
T0D44 091:082 JLINK_ReadReg(R3)  returns 0x08002E5D (0000ms, 5476ms total)
T0D44 091:082 JLINK_ReadReg(R4)  returns 0x08007350 (0000ms, 5476ms total)
T0D44 091:082 JLINK_ReadReg(R5)  returns 0x08007350 (0000ms, 5476ms total)
T0D44 091:082 JLINK_ReadReg(R6)  returns 0x00000000 (0000ms, 5476ms total)
T0D44 091:082 JLINK_ReadReg(R7)  returns 0x00000000 (0000ms, 5476ms total)
T0D44 091:082 JLINK_ReadReg(R8)  returns 0x00000000 (0000ms, 5476ms total)
T0D44 091:082 JLINK_ReadReg(R9)  returns 0x20000160 (0000ms, 5476ms total)
T0D44 091:082 JLINK_ReadReg(R10)  returns 0x00000000 (0000ms, 5476ms total)
T0D44 091:082 JLINK_ReadReg(R11)  returns 0x00000000 (0000ms, 5476ms total)
T0D44 091:082 JLINK_ReadReg(R12)  returns 0x00000010 (0000ms, 5476ms total)
T0D44 091:082 JLINK_ReadReg(R13 (SP))  returns 0x20009870 (0000ms, 5476ms total)
T0D44 091:082 JLINK_ReadReg(R14)  returns 0x08004B7B (0000ms, 5476ms total)
T0D44 091:082 JLINK_ReadReg(R15 (PC))  returns 0x08004B7A (0000ms, 5476ms total)
T0D44 091:082 JLINK_ReadReg(XPSR)  returns 0x21000000 (0000ms, 5476ms total)
T0D44 091:082 JLINK_ReadReg(MSP)  returns 0x20009870 (0000ms, 5476ms total)
T0D44 091:082 JLINK_ReadReg(PSP)  returns 0x20000800 (0000ms, 5476ms total)
T0D44 091:082 JLINK_ReadReg(CFBP)  returns 0x00000001 (0000ms, 5476ms total)
T162C 091:083 JLINK_ReadMemEx(0x20009874, 0x0004 Bytes, ..., Flags = 0x02000000) -- CPU_ReadMem(64 bytes @ 0x20009840) -- Updating C cache (64 bytes @ 0x20009840) -- Read from C cache (4 bytes @ 0x20009874) - Data: 35 60 00 08  returns 0x04 (0001ms, 5477ms total)
T162C 091:084 JLINK_ReadMemEx(0x20009870, 0x0004 Bytes, ..., Flags = 0x02000000) -- Read from C cache (4 bytes @ 0x20009870) - Data: 50 73 00 08  returns 0x04 (0000ms, 5477ms total)
T162C 091:084 JLINK_ReadMemU32(0xE0001004, 0x0001 Items, ...) -- CPU_ReadMem(4 bytes @ 0xE0001004) - Data: 20 6A 01 00  returns 0x01 (0001ms, 5478ms total)
T162C 091:090 JLINK_ReadMemEx(0x08004B70, 0x003C Bytes, ..., Flags = 0x02000000) -- CPU_ReadMem(128 bytes @ 0x08004B40) -- Updating C cache (128 bytes @ 0x08004B40) -- Read from C cache (60 bytes @ 0x08004B70) - Data: 10 B5 4F F4 40 70 FC F7 C1 FC 00 F0 93 F8 00 F0 ...  returns 0x3C (0001ms, 5479ms total)
T0D44 091:603 JLINK_ReadMemEx(0x08004B7A, 0x0002 Bytes, ..., Flags = 0x02000000) -- Read from C cache (2 bytes @ 0x08004B7A) - Data: 00 F0  returns 0x02 (0000ms, 5479ms total)
T0D44 091:603 JLINK_SetBPEx(Addr = 0x08004B7E, Type = 0xFFFFFFF2)  returns 0x00000004 (0000ms, 5479ms total)
T0D44 091:603 JLINK_Go() -- CPU_WriteMem(4 bytes @ 0xE0002000) -- CPU_ReadMem(4 bytes @ 0xE0001000) -- CPU_WriteMem(4 bytes @ 0xE0002008) (0005ms, 5484ms total)
T0D44 091:708 JLINK_IsHalted()  returns TRUE (0003ms, 5487ms total)
T0D44 091:711 JLINK_Halt()  returns 0x00 (0000ms, 5484ms total)
T0D44 091:711 JLINK_IsHalted()  returns TRUE (0000ms, 5484ms total)
T0D44 091:711 JLINK_IsHalted()  returns TRUE (0000ms, 5484ms total)
T0D44 091:711 JLINK_IsHalted()  returns TRUE (0000ms, 5484ms total)
T0D44 091:711 JLINK_ReadReg(R15 (PC))  returns 0x08004B7E (0000ms, 5484ms total)
T0D44 091:711 JLINK_ReadReg(XPSR)  returns 0x61000000 (0000ms, 5484ms total)
T0D44 091:711 JLINK_ClrBPEx(BPHandle = 0x00000004)  returns 0x00 (0000ms, 5484ms total)
T0D44 091:711 JLINK_ReadMemU32(0xE000ED30, 0x0001 Items, ...) -- CPU_ReadMem(4 bytes @ 0xE000ED30) - Data: 02 00 00 00  returns 0x01 (0001ms, 5485ms total)
T0D44 091:712 JLINK_ReadMemU32(0xE0001028, 0x0001 Items, ...) -- CPU_ReadMem(4 bytes @ 0xE0001028) - Data: 00 00 00 00  returns 0x01 (0001ms, 5486ms total)
T0D44 091:713 JLINK_ReadMemU32(0xE0001038, 0x0001 Items, ...) -- CPU_ReadMem(4 bytes @ 0xE0001038) - Data: 00 02 00 00  returns 0x01 (0001ms, 5487ms total)
T0D44 091:714 JLINK_ReadMemU32(0xE0001048, 0x0001 Items, ...) -- CPU_ReadMem(4 bytes @ 0xE0001048) - Data: 00 00 00 00  returns 0x01 (0001ms, 5488ms total)
T0D44 091:715 JLINK_ReadMemU32(0xE0001058, 0x0001 Items, ...) -- CPU_ReadMem(4 bytes @ 0xE0001058) - Data: 00 00 00 00  returns 0x01 (0001ms, 5489ms total)
T0D44 091:716 JLINK_ReadReg(R0)  returns 0x40000001 (0000ms, 5489ms total)
T0D44 091:716 JLINK_ReadReg(R1)  returns 0xE0001000 (0000ms, 5489ms total)
T0D44 091:716 JLINK_ReadReg(R2)  returns 0xE000ED0C (0000ms, 5489ms total)
T0D44 091:716 JLINK_ReadReg(R3)  returns 0x08002E5D (0000ms, 5489ms total)
T0D44 091:716 JLINK_ReadReg(R4)  returns 0x08007350 (0000ms, 5489ms total)
T0D44 091:716 JLINK_ReadReg(R5)  returns 0x08007350 (0000ms, 5489ms total)
T0D44 091:716 JLINK_ReadReg(R6)  returns 0x00000000 (0000ms, 5489ms total)
T0D44 091:716 JLINK_ReadReg(R7)  returns 0x00000000 (0000ms, 5489ms total)
T0D44 091:716 JLINK_ReadReg(R8)  returns 0x00000000 (0000ms, 5489ms total)
T0D44 091:716 JLINK_ReadReg(R9)  returns 0x20000160 (0000ms, 5489ms total)
T0D44 091:716 JLINK_ReadReg(R10)  returns 0x00000000 (0000ms, 5489ms total)
T0D44 091:716 JLINK_ReadReg(R11)  returns 0x00000000 (0000ms, 5489ms total)
T0D44 091:716 JLINK_ReadReg(R12)  returns 0x00000010 (0000ms, 5489ms total)
T0D44 091:716 JLINK_ReadReg(R13 (SP))  returns 0x20009870 (0000ms, 5489ms total)
T0D44 091:716 JLINK_ReadReg(R14)  returns 0x08004B7F (0000ms, 5489ms total)
T0D44 091:716 JLINK_ReadReg(R15 (PC))  returns 0x08004B7E (0000ms, 5489ms total)
T0D44 091:716 JLINK_ReadReg(XPSR)  returns 0x61000000 (0000ms, 5489ms total)
T0D44 091:716 JLINK_ReadReg(MSP)  returns 0x20009870 (0000ms, 5489ms total)
T0D44 091:716 JLINK_ReadReg(PSP)  returns 0x20000800 (0000ms, 5489ms total)
T0D44 091:716 JLINK_ReadReg(CFBP)  returns 0x00000001 (0000ms, 5489ms total)
T162C 091:716 JLINK_ReadMemEx(0x20009874, 0x0004 Bytes, ..., Flags = 0x02000000) -- CPU_ReadMem(64 bytes @ 0x20009840) -- Updating C cache (64 bytes @ 0x20009840) -- Read from C cache (4 bytes @ 0x20009874) - Data: 35 60 00 08  returns 0x04 (0002ms, 5491ms total)
T162C 091:718 JLINK_ReadMemEx(0x20009870, 0x0004 Bytes, ..., Flags = 0x02000000) -- Read from C cache (4 bytes @ 0x20009870) - Data: 50 73 00 08  returns 0x04 (0000ms, 5491ms total)
T162C 091:718 JLINK_ReadMemU32(0xE0001004, 0x0001 Items, ...) -- CPU_ReadMem(4 bytes @ 0xE0001004) - Data: 0A 00 00 00  returns 0x01 (0001ms, 5492ms total)
T162C 091:723 JLINK_ReadMemEx(0x08004B7A, 0x0002 Bytes, ..., Flags = 0x02000000) -- CPU_ReadMem(64 bytes @ 0x08004B40) -- Updating C cache (64 bytes @ 0x08004B40) -- Read from C cache (2 bytes @ 0x08004B7A) - Data: 00 F0  returns 0x02 (0001ms, 5493ms total)
T162C 091:724 JLINK_ReadMemEx(0x08004B7C, 0x003C Bytes, ..., Flags = 0x02000000) -- CPU_ReadMem(64 bytes @ 0x08004B80) -- Updating C cache (64 bytes @ 0x08004B80) -- Read from C cache (60 bytes @ 0x08004B7C) - Data: 93 F8 00 F0 51 F8 00 F0 2F FA 00 F0 B5 FB 00 F0 ...  returns 0x3C (0001ms, 5494ms total)
T0D44 092:260 JLINK_ReadMemEx(0x08004B7E, 0x0002 Bytes, ..., Flags = 0x02000000) -- Read from C cache (2 bytes @ 0x08004B7E) - Data: 00 F0  returns 0x02 (0000ms, 5494ms total)
T0D44 092:260 JLINK_SetBPEx(Addr = 0x08004B82, Type = 0xFFFFFFF2)  returns 0x00000005 (0000ms, 5494ms total)
T0D44 092:260 JLINK_Go() -- CPU_WriteMem(4 bytes @ 0xE0002000) -- CPU_ReadMem(4 bytes @ 0xE0001000) -- CPU_WriteMem(4 bytes @ 0xE0002008) (0005ms, 5499ms total)
T0D44 092:365 JLINK_IsHalted()  returns TRUE (0003ms, 5502ms total)
T0D44 092:368 JLINK_Halt()  returns 0x00 (0000ms, 5499ms total)
T0D44 092:368 JLINK_IsHalted()  returns TRUE (0000ms, 5499ms total)
T0D44 092:368 JLINK_IsHalted()  returns TRUE (0000ms, 5499ms total)
T0D44 092:368 JLINK_IsHalted()  returns TRUE (0000ms, 5499ms total)
T0D44 092:368 JLINK_ReadReg(R15 (PC))  returns 0x08004B82 (0000ms, 5499ms total)
T0D44 092:368 JLINK_ReadReg(XPSR)  returns 0x61000000 (0000ms, 5499ms total)
T0D44 092:368 JLINK_ClrBPEx(BPHandle = 0x00000005)  returns 0x00 (0000ms, 5499ms total)
T0D44 092:368 JLINK_ReadMemU32(0xE000ED30, 0x0001 Items, ...) -- CPU_ReadMem(4 bytes @ 0xE000ED30) - Data: 02 00 00 00  returns 0x01 (0001ms, 5500ms total)
T0D44 092:369 JLINK_ReadMemU32(0xE0001028, 0x0001 Items, ...) -- CPU_ReadMem(4 bytes @ 0xE0001028) - Data: 00 00 00 00  returns 0x01 (0001ms, 5501ms total)
T0D44 092:370 JLINK_ReadMemU32(0xE0001038, 0x0001 Items, ...) -- CPU_ReadMem(4 bytes @ 0xE0001038) - Data: 00 02 00 00  returns 0x01 (0001ms, 5502ms total)
T0D44 092:371 JLINK_ReadMemU32(0xE0001048, 0x0001 Items, ...) -- CPU_ReadMem(4 bytes @ 0xE0001048) - Data: 00 00 00 00  returns 0x01 (0001ms, 5503ms total)
T0D44 092:372 JLINK_ReadMemU32(0xE0001058, 0x0001 Items, ...) -- CPU_ReadMem(4 bytes @ 0xE0001058) - Data: 00 00 00 00  returns 0x01 (0001ms, 5504ms total)
T0D44 092:373 JLINK_ReadReg(R0)  returns 0x00000008 (0000ms, 5504ms total)
T0D44 092:373 JLINK_ReadReg(R1)  returns 0x20009868 (0000ms, 5504ms total)
T0D44 092:373 JLINK_ReadReg(R2)  returns 0x40010C00 (0000ms, 5504ms total)
T0D44 092:373 JLINK_ReadReg(R3)  returns 0x14032000 (0000ms, 5504ms total)
T0D44 092:373 JLINK_ReadReg(R4)  returns 0x08007350 (0000ms, 5504ms total)
T0D44 092:373 JLINK_ReadReg(R5)  returns 0x08007350 (0000ms, 5504ms total)
T0D44 092:373 JLINK_ReadReg(R6)  returns 0x00000000 (0000ms, 5504ms total)
T0D44 092:373 JLINK_ReadReg(R7)  returns 0x00000000 (0000ms, 5504ms total)
T0D44 092:373 JLINK_ReadReg(R8)  returns 0x00000000 (0000ms, 5504ms total)
T0D44 092:373 JLINK_ReadReg(R9)  returns 0x20000160 (0000ms, 5504ms total)
T0D44 092:373 JLINK_ReadReg(R10)  returns 0x00000000 (0000ms, 5504ms total)
T0D44 092:373 JLINK_ReadReg(R11)  returns 0x00000000 (0000ms, 5504ms total)
T0D44 092:373 JLINK_ReadReg(R12)  returns 0x00002000 (0000ms, 5504ms total)
T0D44 092:373 JLINK_ReadReg(R13 (SP))  returns 0x20009870 (0000ms, 5504ms total)
T0D44 092:373 JLINK_ReadReg(R14)  returns 0x08004C4B (0000ms, 5504ms total)
T0D44 092:373 JLINK_ReadReg(R15 (PC))  returns 0x08004B82 (0000ms, 5504ms total)
T0D44 092:373 JLINK_ReadReg(XPSR)  returns 0x61000000 (0000ms, 5504ms total)
T0D44 092:373 JLINK_ReadReg(MSP)  returns 0x20009870 (0000ms, 5504ms total)
T0D44 092:373 JLINK_ReadReg(PSP)  returns 0x20000800 (0000ms, 5504ms total)
T0D44 092:373 JLINK_ReadReg(CFBP)  returns 0x00000001 (0000ms, 5504ms total)
T162C 092:374 JLINK_ReadMemEx(0x20009874, 0x0004 Bytes, ..., Flags = 0x02000000) -- CPU_ReadMem(64 bytes @ 0x20009840) -- Updating C cache (64 bytes @ 0x20009840) -- Read from C cache (4 bytes @ 0x20009874) - Data: 35 60 00 08  returns 0x04 (0001ms, 5505ms total)
T162C 092:375 JLINK_ReadMemEx(0x20009870, 0x0004 Bytes, ..., Flags = 0x02000000) -- Read from C cache (4 bytes @ 0x20009870) - Data: 50 73 00 08  returns 0x04 (0000ms, 5505ms total)
T162C 092:375 JLINK_ReadMemU32(0xE0001004, 0x0001 Items, ...) -- CPU_ReadMem(4 bytes @ 0xE0001004) - Data: 5D 01 00 00  returns 0x01 (0001ms, 5506ms total)
T162C 092:384 JLINK_ReadMemEx(0x08004B7A, 0x0002 Bytes, ..., Flags = 0x02000000) -- CPU_ReadMem(64 bytes @ 0x08004B40) -- Updating C cache (64 bytes @ 0x08004B40) -- Read from C cache (2 bytes @ 0x08004B7A) - Data: 00 F0  returns 0x02 (0001ms, 5507ms total)
T162C 092:385 JLINK_ReadMemEx(0x08004B7C, 0x003C Bytes, ..., Flags = 0x02000000) -- CPU_ReadMem(64 bytes @ 0x08004B80) -- Updating C cache (64 bytes @ 0x08004B80) -- Read from C cache (60 bytes @ 0x08004B7C) - Data: 93 F8 00 F0 51 F8 00 F0 2F FA 00 F0 B5 FB 00 F0 ...  returns 0x3C (0001ms, 5508ms total)
T0D44 092:835 JLINK_ReadMemEx(0x08004B82, 0x0002 Bytes, ..., Flags = 0x02000000) -- Read from C cache (2 bytes @ 0x08004B82) - Data: 00 F0  returns 0x02 (0000ms, 5508ms total)
T0D44 092:835 JLINK_SetBPEx(Addr = 0x08004B86, Type = 0xFFFFFFF2)  returns 0x00000006 (0000ms, 5508ms total)
T0D44 092:835 JLINK_Go() -- CPU_WriteMem(4 bytes @ 0xE0002000) -- CPU_ReadMem(4 bytes @ 0xE0001000) -- CPU_WriteMem(4 bytes @ 0xE0002008) (0004ms, 5512ms total)
T0D44 092:939 JLINK_IsHalted()  returns TRUE (0003ms, 5515ms total)
T0D44 092:942 JLINK_Halt()  returns 0x00 (0000ms, 5512ms total)
T0D44 092:942 JLINK_IsHalted()  returns TRUE (0000ms, 5512ms total)
T0D44 092:942 JLINK_IsHalted()  returns TRUE (0000ms, 5512ms total)
T0D44 092:942 JLINK_IsHalted()  returns TRUE (0000ms, 5512ms total)
T0D44 092:942 JLINK_ReadReg(R15 (PC))  returns 0x08004B86 (0000ms, 5512ms total)
T0D44 092:942 JLINK_ReadReg(XPSR)  returns 0x81000000 (0000ms, 5512ms total)
T0D44 092:942 JLINK_ClrBPEx(BPHandle = 0x00000006)  returns 0x00 (0000ms, 5512ms total)
T0D44 092:942 JLINK_ReadMemU32(0xE000ED30, 0x0001 Items, ...) -- CPU_ReadMem(4 bytes @ 0xE000ED30) - Data: 02 00 00 00  returns 0x01 (0001ms, 5513ms total)
T0D44 092:943 JLINK_ReadMemU32(0xE0001028, 0x0001 Items, ...) -- CPU_ReadMem(4 bytes @ 0xE0001028) - Data: 00 00 00 00  returns 0x01 (0001ms, 5514ms total)
T0D44 092:944 JLINK_ReadMemU32(0xE0001038, 0x0001 Items, ...) -- CPU_ReadMem(4 bytes @ 0xE0001038) - Data: 00 02 00 00  returns 0x01 (0001ms, 5515ms total)
T0D44 092:945 JLINK_ReadMemU32(0xE0001048, 0x0001 Items, ...) -- CPU_ReadMem(4 bytes @ 0xE0001048) - Data: 00 00 00 00  returns 0x01 (0001ms, 5516ms total)
T0D44 092:946 JLINK_ReadMemU32(0xE0001058, 0x0001 Items, ...) -- CPU_ReadMem(4 bytes @ 0xE0001058) - Data: 00 00 00 00  returns 0x01 (0001ms, 5517ms total)
T0D44 092:947 JLINK_ReadReg(R0)  returns 0x00000008 (0000ms, 5517ms total)
T0D44 092:947 JLINK_ReadReg(R1)  returns 0x20009868 (0000ms, 5517ms total)
T0D44 092:947 JLINK_ReadReg(R2)  returns 0x40012000 (0000ms, 5517ms total)
T0D44 092:947 JLINK_ReadReg(R3)  returns 0x10030002 (0000ms, 5517ms total)
T0D44 092:947 JLINK_ReadReg(R4)  returns 0x08007350 (0000ms, 5517ms total)
T0D44 092:947 JLINK_ReadReg(R5)  returns 0x08007350 (0000ms, 5517ms total)
T0D44 092:947 JLINK_ReadReg(R6)  returns 0x00000000 (0000ms, 5517ms total)
T0D44 092:947 JLINK_ReadReg(R7)  returns 0x00000000 (0000ms, 5517ms total)
T0D44 092:947 JLINK_ReadReg(R8)  returns 0x00000000 (0000ms, 5517ms total)
T0D44 092:947 JLINK_ReadReg(R9)  returns 0x20000160 (0000ms, 5517ms total)
T0D44 092:947 JLINK_ReadReg(R10)  returns 0x00000000 (0000ms, 5517ms total)
T0D44 092:947 JLINK_ReadReg(R11)  returns 0x00000000 (0000ms, 5517ms total)
T0D44 092:947 JLINK_ReadReg(R12)  returns 0x00000002 (0001ms, 5518ms total)
T0D44 092:948 JLINK_ReadReg(R13 (SP))  returns 0x20009870 (0000ms, 5518ms total)
T0D44 092:948 JLINK_ReadReg(R14)  returns 0x08005009 (0000ms, 5518ms total)
T0D44 092:948 JLINK_ReadReg(R15 (PC))  returns 0x08004B86 (0000ms, 5518ms total)
T0D44 092:948 JLINK_ReadReg(XPSR)  returns 0x81000000 (0000ms, 5518ms total)
T0D44 092:948 JLINK_ReadReg(MSP)  returns 0x20009870 (0000ms, 5518ms total)
T0D44 092:948 JLINK_ReadReg(PSP)  returns 0x20000800 (0000ms, 5518ms total)
T0D44 092:948 JLINK_ReadReg(CFBP)  returns 0x00000001 (0000ms, 5518ms total)
T162C 092:948 JLINK_ReadMemEx(0x20009874, 0x0004 Bytes, ..., Flags = 0x02000000) -- CPU_ReadMem(64 bytes @ 0x20009840) -- Updating C cache (64 bytes @ 0x20009840) -- Read from C cache (4 bytes @ 0x20009874) - Data: 35 60 00 08  returns 0x04 (0002ms, 5520ms total)
T162C 092:950 JLINK_ReadMemEx(0x20009870, 0x0004 Bytes, ..., Flags = 0x02000000) -- Read from C cache (4 bytes @ 0x20009870) - Data: 50 73 00 08  returns 0x04 (0000ms, 5520ms total)
T162C 092:950 JLINK_ReadMemU32(0xE0001004, 0x0001 Items, ...) -- CPU_ReadMem(4 bytes @ 0xE0001004) - Data: 91 02 00 00  returns 0x01 (0001ms, 5521ms total)
T162C 092:959 JLINK_ReadMemEx(0x08004B86, 0x0002 Bytes, ..., Flags = 0x02000000) -- CPU_ReadMem(64 bytes @ 0x08004B80) -- Updating C cache (64 bytes @ 0x08004B80) -- Read from C cache (2 bytes @ 0x08004B86) - Data: 00 F0  returns 0x02 (0001ms, 5522ms total)
T162C 092:960 JLINK_ReadMemEx(0x08004B88, 0x003C Bytes, ..., Flags = 0x02000000) -- CPU_ReadMem(64 bytes @ 0x08004BC0) -- Updating C cache (64 bytes @ 0x08004BC0) -- Read from C cache (60 bytes @ 0x08004B88) - Data: B5 FB 00 F0 8F FA 00 F0 C9 F9 00 F0 22 F9 00 F0 ...  returns 0x3C (0001ms, 5523ms total)
T0D44 093:382 JLINK_ReadMemEx(0x08004B86, 0x0002 Bytes, ..., Flags = 0x02000000) -- Read from C cache (2 bytes @ 0x08004B86) - Data: 00 F0  returns 0x02 (0000ms, 5523ms total)
T0D44 093:382 JLINK_SetBPEx(Addr = 0x08004B8A, Type = 0xFFFFFFF2)  returns 0x00000007 (0000ms, 5523ms total)
T0D44 093:382 JLINK_Go() -- CPU_WriteMem(4 bytes @ 0xE0002000) -- CPU_ReadMem(4 bytes @ 0xE0001000) -- CPU_WriteMem(4 bytes @ 0xE0002008) (0005ms, 5528ms total)
T0D44 093:487 JLINK_IsHalted()  returns TRUE (0003ms, 5531ms total)
T0D44 093:490 JLINK_Halt()  returns 0x00 (0000ms, 5528ms total)
T0D44 093:490 JLINK_IsHalted()  returns TRUE (0000ms, 5528ms total)
T0D44 093:490 JLINK_IsHalted()  returns TRUE (0000ms, 5528ms total)
T0D44 093:490 JLINK_IsHalted()  returns TRUE (0000ms, 5528ms total)
T0D44 093:490 JLINK_ReadReg(R15 (PC))  returns 0x08004B8A (0000ms, 5528ms total)
T0D44 093:490 JLINK_ReadReg(XPSR)  returns 0x01000000 (0000ms, 5528ms total)
T0D44 093:490 JLINK_ClrBPEx(BPHandle = 0x00000007)  returns 0x00 (0000ms, 5528ms total)
T0D44 093:490 JLINK_ReadMemU32(0xE000ED30, 0x0001 Items, ...) -- CPU_ReadMem(4 bytes @ 0xE000ED30) - Data: 02 00 00 00  returns 0x01 (0001ms, 5529ms total)
T0D44 093:491 JLINK_ReadMemU32(0xE0001028, 0x0001 Items, ...) -- CPU_ReadMem(4 bytes @ 0xE0001028) - Data: 00 00 00 00  returns 0x01 (0001ms, 5530ms total)
T0D44 093:492 JLINK_ReadMemU32(0xE0001038, 0x0001 Items, ...) -- CPU_ReadMem(4 bytes @ 0xE0001038) - Data: 00 02 00 00  returns 0x01 (0001ms, 5531ms total)
T0D44 093:493 JLINK_ReadMemU32(0xE0001048, 0x0001 Items, ...) -- CPU_ReadMem(4 bytes @ 0xE0001048) - Data: 00 00 00 00  returns 0x01 (0001ms, 5532ms total)
T0D44 093:494 JLINK_ReadMemU32(0xE0001058, 0x0001 Items, ...) -- CPU_ReadMem(4 bytes @ 0xE0001058) - Data: 00 00 00 00  returns 0x01 (0001ms, 5533ms total)
T0D44 093:495 JLINK_ReadReg(R0)  returns 0x20009860 (0000ms, 5533ms total)
T0D44 093:495 JLINK_ReadReg(R1)  returns 0x00000010 (0000ms, 5533ms total)
T0D44 093:495 JLINK_ReadReg(R2)  returns 0x00000000 (0000ms, 5533ms total)
T0D44 093:495 JLINK_ReadReg(R3)  returns 0x01000134 (0000ms, 5533ms total)
